
T24B4 000:066 SEGGER J-Link V4.74b Log File (0001ms, 0065ms total)
T24B4 000:066 DLL Compiled: Aug 19 2013 23:26:44 (0001ms, 0065ms total)
T24B4 000:066 Logging started @ 2015-01-15 14:00 (0001ms, 0065ms total)
T24B4 000:067 JLINK_SetWarnOutHandler(...) (0000ms, 0065ms total)
T24B4 000:067 JLINK_OpenEx(...)
Firmware: J-Link ARM V8 compiled Jul 17 2013 11:24:15
Hardware: V8.00
S/N: 20121127
Feature(s): RDI,FlashDL,FlashBP,JFlash,GDBFULL  returns O.K. (0027ms, 0092ms total)
T24B4 000:094 JLINK_SetErrorOutHandler(...) (0000ms, 0092ms total)
T24B4 000:094 JLINK_ExecCommand("ProjectFile = "E:\code\BandAK\project\JLinkSettings.ini"", ...)  returns 0x00 (0001ms, 0093ms total)
T24B4 000:100 JLINK_ExecCommand("Device = nRF51822_xxAA", ...)
                JLINK_AddMirrorAreaEx(Addr = 0x00000000, Size = 0x00000000) (0000ms, 0000ms total)
              Device "NRF51822_XXAA" selected (257 KB flash, 16 KB RAM).  returns 0x00 (0003ms, 0096ms total)
T24B4 000:103 JLINK_ExecCommand("DisableConnectionTimeout", ...)  returns 0x01 (0000ms, 0096ms total)
T24B4 000:103 JLINK_GetHardwareVersion()  returns 0x13880 (0000ms, 0096ms total)
T24B4 000:103 JLINK_GetDLLVersion()  returns 47402 (0000ms, 0096ms total)
T24B4 000:103 JLINK_GetFirmwareString(...) (0000ms, 0096ms total)
T24B4 000:111 JLINK_GetDLLVersion()  returns 47402 (0000ms, 0096ms total)
T24B4 000:111 JLINK_GetCompileDateTime() (0000ms, 0096ms total)
T24B4 000:117 JLINK_GetFirmwareString(...) (0000ms, 0096ms total)
T24B4 000:124 JLINK_GetHardwareVersion()  returns 0x13880 (0000ms, 0096ms total)
T24B4 000:132 JLINK_TIF_Select(JLINKARM_TIF_SWD)  returns 0x00 (0005ms, 0101ms total)
T24B4 000:137 JLINK_SetMaxSpeed() >0x108 TIF>Found SWD-DP with ID 0x0BB11477 >0x35 TIF> >0x0D TIF> >0x28 TIF> >0x0D TIF> >0x28 TIF> >0x35 TIF> >0x35 TIF> >0x0D TIF> >0x28 TIF> >0x35 TIF> >0x35 TIF> >0x35 TIF> >0x35 TIF> >0x0D TIF> >0x28 TIF> >0x0D TIF> >0x28 TIF> >0x0D TIF> >0x28 TIF> >0x35 TIF> >0x35 TIF> >0x35 TIF> >0x0D TIF> >0x28 TIF> >0x0D TIF> >0x28 TIF> >0x35 TIF> >0x35 TIF> >0x0D TIF> >0x28 TIF> >0x35 TIF> >0x35 TIF> >0x0D TIF> >0x28 TIF> >0x0D TIF> >0x28 TIF> >0x0D TIF> >0x28 TIF> >0x35 TIF>
 >0x35 TIF> >0x0D TIF> >0x28 TIF> >0x0D TIF> >0x28 TIF> >0x0D TIF> >0x28 TIF> >0x35 TIF> >0x35 TIF> >0x35 TIF> >0x0D TIF> >0x28 TIF> >0x35 TIF> >0x35 TIF> >0x0D TIF> >0x28 TIF> >0x35 TIF> >0x35 TIF>FPUnit: 4 code (BP) slots and 0 literal slots >0x0D TIF> >0x28 TIF> >0x35 TIF> >0x35 TIF> >0x0D TIF> >0x28 TIF> >0x35 TIF> >0x35 TIF> >0x0D TIF> >0x28 TIF> >0x35 TIF> >0x35 TIF> >0x0D TIF> >0x28 TIF> >0x35 TIF> >0x35 TIF>Found Cortex-M0 r0p0, Little endian. (0096ms, 0197ms total)
T24B4 000:233 JLINK_GetSpeed()  returns 0x7D0 (0000ms, 0197ms total)
T24B4 000:233 JLINK_GetId() >0x35 TIF>  returns 0x0BB11477 (0001ms, 0198ms total)
T24B4 000:234 JLINK_CORE_GetFound()  returns 0x60000FF (0000ms, 0198ms total)
T24B4 000:239 JLINK_ReadMem (0xE00FFFF0, 0x0010 Bytes, ...) -- CPU is running -- CPU_ReadMem(16 bytes @ 0xE00FFFF0) -- Data:  0D 00 00 00 10 00 00 00 05 00 00 00 B1 00 00 00  returns 0x00 (0002ms, 0200ms total)
T24B4 000:241 JLINK_ReadMem (0xE00FFFD0, 0x0020 Bytes, ...) -- CPU is running -- CPU_ReadMem(32 bytes @ 0xE00FFFD0) -- Data:  04 00 00 00 00 00 00 00 00 00 00 00 00 00 00 00 ...  returns 0x00 (0001ms, 0201ms total)
T24B4 000:242 JLINK_ReadMem (0xE00FF000, 0x0018 Bytes, ...) -- CPU is running -- CPU_ReadMem(24 bytes @ 0xE00FF000) -- Data:  03 F0 F0 FF 03 20 F0 FF 03 30 F0 FF 00 00 00 00 ...  returns 0x00 (0001ms, 0202ms total)
T24B4 000:243 JLINK_CORE_GetFound()  returns 0x60000FF (0000ms, 0202ms total)
T24B4 000:243 JLINK_ReadMemU32(0xE000ED00, 0x0001 Items, ...) -- CPU is running -- CPU_ReadMem(4 bytes @ 0xE000ED00) -- Data:  00 C2 0C 41  returns 0x01 (0001ms, 0203ms total)
T24B4 000:244 JLINK_SetResetType(JLINKARM_RESET_TYPE_NORMAL)  returns JLINKARM_RESET_TYPE_NORMAL (0000ms, 0203ms total)
T24B4 000:244 JLINK_Reset() -- CPU is running -- CPU_WriteMem(4 bytes @ 0xE000EDF0) -- CPU is running -- CPU_WriteMem(4 bytes @ 0xE000EDFC) >0x35 TIF> -- CPU is running -- CPU_WriteMem(4 bytes @ 0xE000ED0C) -- CPU is running -- CPU_ReadMem(4 bytes @ 0xE000EDF0) -- CPU is running -- CPU_ReadMem(4 bytes @ 0xE000EDF0) -- CPU is running -- CPU_WriteMem(4 bytes @ 0xE000EDF0) -- CPU is running -- CPU_WriteMem(4 bytes @ 0xE000EDFC) -- CPU is running -- CPU_ReadMem(4 bytes @ 0xE000EDF0)
 -- CPU_WriteMem(4 bytes @ 0xE0002000) (0022ms, 0225ms total)
T24B4 000:266 JLINK_Halt()  returns 0x00 (0000ms, 0225ms total)
T24B4 000:266 JLINK_IsHalted() -- MA0 is in flash -- Unmirror addr 0x000006D0  returns TRUE (0000ms, 0225ms total)
T24B4 000:266 JLINK_ReadMemU32(0xE000EDF0, 0x0001 Items, ...) -- CPU_ReadMem(4 bytes @ 0xE000EDF0) -- Data:  03 00 03 00  returns 0x01 (0001ms, 0226ms total)
T24B4 000:267 JLINK_WriteU32(0xE000EDF0, 0xA05F0003) -- CPU_WriteMem(4 bytes @ 0xE000EDF0) -- Invalidate MA0 status  returns 0x00 (0002ms, 0228ms total)
T24B4 000:269 JLINK_WriteU32(0xE000EDFC, 0x01000000) -- CPU_WriteMem(4 bytes @ 0xE000EDFC)  returns 0x00 (0001ms, 0229ms total)
T24B4 000:284 JLINK_GetHWStatus(...)  returns 0x00 (0001ms, 0230ms total)
T24B4 000:296 JLINK_GetNumBPUnits(Type = 0xFFFFFF00)  returns 0x04 (0000ms, 0230ms total)
T24B4 000:296 JLINK_GetNumBPUnits(Type = 0xF0)  returns 0x2000 (0000ms, 0230ms total)
T24B4 000:296 JLINK_GetNumWPUnits()  returns 0x02 (0000ms, 0230ms total)
T24B4 000:301 JLINK_GetSpeed()  returns 0x7D0 (0000ms, 0230ms total)
T24B4 000:304 JLINK_ReadMemU32(0xE000E004, 0x0001 Items, ...) -- CPU_ReadMem(4 bytes @ 0xE000E004) -- Data:  00 00 00 00  returns 0x01 (0002ms, 0232ms total)
T24B4 000:306 JLINK_Halt()  returns 0x00 (0000ms, 0232ms total)
T24B4 000:306 JLINK_IsHalted() -- MA0 is in flash -- Unmirror addr 0x000006D0  returns TRUE (0000ms, 0232ms total)
T24B4 000:308 JLINK_WriteMem(0x20002000, 0x0470 Bytes, ...) -- Data:  00 BE 0A E0 0D 78 2D 06 68 40 08 24 40 00 00 D3 ... -- CPU_WriteMem(1136 bytes @ 0x20002000)  returns 0x470 (0013ms, 0245ms total)
T24B4 000:321 JLINK_WriteReg(R0, 0x00000000)  returns 0x00 (0000ms, 0245ms total)
T24B4 000:321 JLINK_WriteReg(R1, 0x00B71B00)  returns 0x00 (0000ms, 0245ms total)
T24B4 000:321 JLINK_WriteReg(R2, 0x00000001)  returns 0x00 (0000ms, 0245ms total)
T24B4 000:321 JLINK_WriteReg(R3, 0x00000000)  returns 0x00 (0000ms, 0245ms total)
T24B4 000:321 JLINK_WriteReg(R4, 0x00000000)  returns 0x00 (0000ms, 0245ms total)
T24B4 000:321 JLINK_WriteReg(R5, 0x00000000)  returns 0x00 (0000ms, 0245ms total)
T24B4 000:321 JLINK_WriteReg(R6, 0x00000000)  returns 0x00 (0000ms, 0245ms total)
T24B4 000:321 JLINK_WriteReg(R7, 0x00000000)  returns 0x00 (0000ms, 0245ms total)
T24B4 000:321 JLINK_WriteReg(R8, 0x00000000)  returns 0x00 (0000ms, 0245ms total)
T24B4 000:321 JLINK_WriteReg(R9, 0x2000246C)  returns 0x00 (0000ms, 0245ms total)
T24B4 000:321 JLINK_WriteReg(R10, 0x00000000)  returns 0x00 (0000ms, 0245ms total)
T24B4 000:321 JLINK_WriteReg(R11, 0x00000000)  returns 0x00 (0000ms, 0245ms total)
T24B4 000:321 JLINK_WriteReg(R12, 0x00000000)  returns 0x00 (0000ms, 0245ms total)
T24B4 000:321 JLINK_WriteReg(R13 (SP), 0x20004000)  returns 0x00 (0000ms, 0245ms total)
T24B4 000:321 JLINK_WriteReg(R14, 0x20002001)  returns 0x00 (0000ms, 0245ms total)
T24B4 000:321 JLINK_WriteReg(R15 (PC), 0x20002028)  returns 0x00 (0000ms, 0245ms total)
T24B4 000:321 JLINK_WriteReg(XPSR, 0x01000000)  returns 0x00 (0000ms, 0245ms total)
T24B4 000:321 JLINK_WriteReg(MSP, 0x20004000)  returns 0x00 (0000ms, 0245ms total)
T24B4 000:321 JLINK_WriteReg(PSP, 0x20004000)  returns 0x00 (0000ms, 0245ms total)
T24B4 000:321 JLINK_WriteReg(CFBP, 0x00000000)  returns 0x00 (0000ms, 0245ms total)
T24B4 000:321 JLINK_SetBPEx(Addr = 0x20002000, Type = 0xFFFFFFF2) -- CPU_ReadMem(2 bytes @ 0x20002000)  returns 0x00000001 (0002ms, 0247ms total)
T24B4 000:323 JLINK_Go() -- CPU_WriteMem(2 bytes @ 0x20002000) -- Invalidate MA0 status -- CPU_WriteMem(4 bytes @ 0xE0002008) -- CPU_WriteMem(4 bytes @ 0xE000200C) -- CPU_WriteMem(4 bytes @ 0xE0002010) -- CPU_WriteMem(4 bytes @ 0xE0002014) (0008ms, 0255ms total)
T24B4 000:331 JLINK_IsHalted() -- CPU_ReadMem(2 bytes @ 0x20002000)  returns TRUE (0005ms, 0260ms total)
T24B4 000:336 JLINK_ReadReg(R15 (PC))  returns 0x20002000 (0000ms, 0255ms total)
T24B4 000:336 JLINK_ClrBPEx(BPHandle = 0x00000001)  returns 0x00 (0000ms, 0255ms total)
T24B4 000:336 JLINK_ReadReg(R0)  returns 0x00000000 (0000ms, 0255ms total)
T24B4 000:336 JLINK_WriteReg(R0, 0x00016000)  returns 0x00 (0000ms, 0255ms total)
T24B4 000:336 JLINK_WriteReg(R1, 0x00000400)  returns 0x00 (0000ms, 0255ms total)
T24B4 000:336 JLINK_WriteReg(R2, 0x000000FF)  returns 0x00 (0000ms, 0255ms total)
T24B4 000:336 JLINK_WriteReg(R3, 0x00000000)  returns 0x00 (0000ms, 0255ms total)
T24B4 000:336 JLINK_WriteReg(R4, 0x00000000)  returns 0x00 (0000ms, 0255ms total)
T24B4 000:336 JLINK_WriteReg(R5, 0x00000000)  returns 0x00 (0001ms, 0256ms total)
T24B4 000:337 JLINK_WriteReg(R6, 0x00000000)  returns 0x00 (0000ms, 0256ms total)
T24B4 000:337 JLINK_WriteReg(R7, 0x00000000)  returns 0x00 (0000ms, 0256ms total)
T24B4 000:337 JLINK_WriteReg(R8, 0x00000000)  returns 0x00 (0000ms, 0256ms total)
T24B4 000:337 JLINK_WriteReg(R9, 0x2000246C)  returns 0x00 (0000ms, 0256ms total)
T24B4 000:337 JLINK_WriteReg(R10, 0x00000000)  returns 0x00 (0000ms, 0256ms total)
T24B4 000:337 JLINK_WriteReg(R11, 0x00000000)  returns 0x00 (0000ms, 0256ms total)
T24B4 000:337 JLINK_WriteReg(R12, 0x00000000)  returns 0x00 (0000ms, 0256ms total)
T24B4 000:337 JLINK_WriteReg(R13 (SP), 0x20004000)  returns 0x00 (0000ms, 0256ms total)
T24B4 000:337 JLINK_WriteReg(R14, 0x20002001)  returns 0x00 (0000ms, 0256ms total)
T24B4 000:337 JLINK_WriteReg(R15 (PC), 0x20002182)  returns 0x00 (0000ms, 0256ms total)
T24B4 000:337 JLINK_WriteReg(XPSR, 0x01000000)  returns 0x00 (0000ms, 0256ms total)
T24B4 000:337 JLINK_WriteReg(MSP, 0x20004000)  returns 0x00 (0000ms, 0256ms total)
T24B4 000:337 JLINK_WriteReg(PSP, 0x20004000)  returns 0x00 (0000ms, 0256ms total)
T24B4 000:337 JLINK_WriteReg(CFBP, 0x00000000)  returns 0x00 (0000ms, 0256ms total)
T24B4 000:337 JLINK_SetBPEx(Addr = 0x20002000, Type = 0xFFFFFFF2)  returns 0x00000002 (0000ms, 0256ms total)
T24B4 000:337 JLINK_Go() (0002ms, 0258ms total)
T24B4 000:339 JLINK_IsHalted() -- CPU_ReadMem(2 bytes @ 0x20002000)  returns TRUE (0005ms, 0263ms total)
T24B4 000:344 JLINK_ReadReg(R15 (PC))  returns 0x20002000 (0000ms, 0258ms total)
T24B4 000:344 JLINK_ClrBPEx(BPHandle = 0x00000002)  returns 0x00 (0000ms, 0258ms total)
T24B4 000:344 JLINK_ReadReg(R0)  returns 0x00000001 (0000ms, 0258ms total)
T24B4 000:344 JLINK_WriteReg(R0, 0x00016000)  returns 0x00 (0000ms, 0258ms total)
T24B4 000:344 JLINK_WriteReg(R1, 0x00000400)  returns 0x00 (0000ms, 0258ms total)
T24B4 000:344 JLINK_WriteReg(R2, 0x000000FF)  returns 0x00 (0000ms, 0258ms total)
T24B4 000:344 JLINK_WriteReg(R3, 0x00000000)  returns 0x00 (0000ms, 0258ms total)
T24B4 000:344 JLINK_WriteReg(R4, 0x00000000)  returns 0x00 (0000ms, 0258ms total)
T24B4 000:344 JLINK_WriteReg(R5, 0x00000000)  returns 0x00 (0000ms, 0258ms total)
T24B4 000:344 JLINK_WriteReg(R6, 0x00000000)  returns 0x00 (0000ms, 0258ms total)
T24B4 000:344 JLINK_WriteReg(R7, 0x00000000)  returns 0x00 (0000ms, 0258ms total)
T24B4 000:344 JLINK_WriteReg(R8, 0x00000000)  returns 0x00 (0000ms, 0258ms total)
T24B4 000:344 JLINK_WriteReg(R9, 0x2000246C)  returns 0x00 (0000ms, 0258ms total)
T24B4 000:344 JLINK_WriteReg(R10, 0x00000000)  returns 0x00 (0000ms, 0258ms total)
T24B4 000:344 JLINK_WriteReg(R11, 0x00000000)  returns 0x00 (0000ms, 0258ms total)
T24B4 000:344 JLINK_WriteReg(R12, 0x00000000)  returns 0x00 (0000ms, 0258ms total)
T24B4 000:344 JLINK_WriteReg(R13 (SP), 0x20004000)  returns 0x00 (0000ms, 0258ms total)
T24B4 000:344 JLINK_WriteReg(R14, 0x20002001)  returns 0x00 (0000ms, 0258ms total)
T24B4 000:344 JLINK_WriteReg(R15 (PC), 0x200020FE)  returns 0x00 (0000ms, 0258ms total)
T24B4 000:344 JLINK_WriteReg(XPSR, 0x01000000)  returns 0x00 (0000ms, 0258ms total)
T24B4 000:344 JLINK_WriteReg(MSP, 0x20004000)  returns 0x00 (0000ms, 0258ms total)
T24B4 000:344 JLINK_WriteReg(PSP, 0x20004000)  returns 0x00 (0000ms, 0258ms total)
T24B4 000:344 JLINK_WriteReg(CFBP, 0x00000000)  returns 0x00 (0000ms, 0258ms total)
T24B4 000:344 JLINK_SetBPEx(Addr = 0x20002000, Type = 0xFFFFFFF2)  returns 0x00000003 (0000ms, 0258ms total)
T24B4 000:344 JLINK_Go() (0003ms, 0261ms total)
T24B4 000:347 JLINK_IsHalted()  returns FALSE (0001ms, 0262ms total)
T24B4 000:403 JLINK_IsHalted() -- CPU_ReadMem(2 bytes @ 0x20002000)  returns TRUE (0005ms, 0266ms total)
T24B4 000:408 JLINK_ReadReg(R15 (PC))  returns 0x20002000 (0000ms, 0261ms total)
T24B4 000:408 JLINK_ClrBPEx(BPHandle = 0x00000003)  returns 0x00 (0000ms, 0261ms total)
T24B4 000:408 JLINK_ReadReg(R0)  returns 0x00000000 (0000ms, 0261ms total)
T24B4 000:408 JLINK_WriteReg(R0, 0x00016400)  returns 0x00 (0000ms, 0261ms total)
T24B4 000:408 JLINK_WriteReg(R1, 0x00000400)  returns 0x00 (0000ms, 0261ms total)
T24B4 000:408 JLINK_WriteReg(R2, 0x000000FF)  returns 0x00 (0000ms, 0261ms total)
T24B4 000:408 JLINK_WriteReg(R3, 0x00000000)  returns 0x00 (0000ms, 0261ms total)
T24B4 000:408 JLINK_WriteReg(R4, 0x00000000)  returns 0x00 (0000ms, 0261ms total)
T24B4 000:408 JLINK_WriteReg(R5, 0x00000000)  returns 0x00 (0000ms, 0261ms total)
T24B4 000:408 JLINK_WriteReg(R6, 0x00000000)  returns 0x00 (0000ms, 0261ms total)
T24B4 000:408 JLINK_WriteReg(R7, 0x00000000)  returns 0x00 (0000ms, 0261ms total)
T24B4 000:408 JLINK_WriteReg(R8, 0x00000000)  returns 0x00 (0000ms, 0261ms total)
T24B4 000:408 JLINK_WriteReg(R9, 0x2000246C)  returns 0x00 (0000ms, 0261ms total)
T24B4 000:408 JLINK_WriteReg(R10, 0x00000000)  returns 0x00 (0000ms, 0261ms total)
T24B4 000:408 JLINK_WriteReg(R11, 0x00000000)  returns 0x00 (0000ms, 0261ms total)
T24B4 000:408 JLINK_WriteReg(R12, 0x00000000)  returns 0x00 (0000ms, 0261ms total)
T24B4 000:408 JLINK_WriteReg(R13 (SP), 0x20004000)  returns 0x00 (0000ms, 0261ms total)
T24B4 000:408 JLINK_WriteReg(R14, 0x20002001)  returns 0x00 (0000ms, 0261ms total)
T24B4 000:408 JLINK_WriteReg(R15 (PC), 0x20002182)  returns 0x00 (0000ms, 0261ms total)
T24B4 000:409 JLINK_WriteReg(XPSR, 0x01000000)  returns 0x00 (0000ms, 0261ms total)
T24B4 000:409 JLINK_WriteReg(MSP, 0x20004000)  returns 0x00 (0000ms, 0261ms total)
T24B4 000:409 JLINK_WriteReg(PSP, 0x20004000)  returns 0x00 (0000ms, 0261ms total)
T24B4 000:409 JLINK_WriteReg(CFBP, 0x00000000)  returns 0x00 (0000ms, 0261ms total)
T24B4 000:409 JLINK_SetBPEx(Addr = 0x20002000, Type = 0xFFFFFFF2)  returns 0x00000004 (0000ms, 0261ms total)
T24B4 000:409 JLINK_Go() (0002ms, 0263ms total)
T24B4 000:411 JLINK_IsHalted() -- CPU_ReadMem(2 bytes @ 0x20002000)  returns TRUE (0005ms, 0268ms total)
T24B4 000:416 JLINK_ReadReg(R15 (PC))  returns 0x20002000 (0000ms, 0263ms total)
T24B4 000:416 JLINK_ClrBPEx(BPHandle = 0x00000004)  returns 0x00 (0000ms, 0263ms total)
T24B4 000:416 JLINK_ReadReg(R0)  returns 0x00000001 (0000ms, 0263ms total)
T24B4 000:416 JLINK_WriteReg(R0, 0x00016400)  returns 0x00 (0000ms, 0263ms total)
T24B4 000:416 JLINK_WriteReg(R1, 0x00000400)  returns 0x00 (0000ms, 0263ms total)
T24B4 000:416 JLINK_WriteReg(R2, 0x000000FF)  returns 0x00 (0000ms, 0263ms total)
T24B4 000:416 JLINK_WriteReg(R3, 0x00000000)  returns 0x00 (0000ms, 0263ms total)
T24B4 000:416 JLINK_WriteReg(R4, 0x00000000)  returns 0x00 (0000ms, 0263ms total)
T24B4 000:416 JLINK_WriteReg(R5, 0x00000000)  returns 0x00 (0000ms, 0263ms total)
T24B4 000:416 JLINK_WriteReg(R6, 0x00000000)  returns 0x00 (0000ms, 0263ms total)
T24B4 000:416 JLINK_WriteReg(R7, 0x00000000)  returns 0x00 (0000ms, 0263ms total)
T24B4 000:416 JLINK_WriteReg(R8, 0x00000000)  returns 0x00 (0000ms, 0263ms total)
T24B4 000:416 JLINK_WriteReg(R9, 0x2000246C)  returns 0x00 (0000ms, 0263ms total)
T24B4 000:416 JLINK_WriteReg(R10, 0x00000000)  returns 0x00 (0000ms, 0263ms total)
T24B4 000:416 JLINK_WriteReg(R11, 0x00000000)  returns 0x00 (0000ms, 0263ms total)
T24B4 000:416 JLINK_WriteReg(R12, 0x00000000)  returns 0x00 (0000ms, 0263ms total)
T24B4 000:416 JLINK_WriteReg(R13 (SP), 0x20004000)  returns 0x00 (0000ms, 0263ms total)
T24B4 000:416 JLINK_WriteReg(R14, 0x20002001)  returns 0x00 (0000ms, 0263ms total)
T24B4 000:416 JLINK_WriteReg(R15 (PC), 0x200020FE)  returns 0x00 (0000ms, 0263ms total)
T24B4 000:416 JLINK_WriteReg(XPSR, 0x01000000)  returns 0x00 (0000ms, 0263ms total)
T24B4 000:417 JLINK_WriteReg(MSP, 0x20004000)  returns 0x00 (0000ms, 0264ms total)
T24B4 000:417 JLINK_WriteReg(PSP, 0x20004000)  returns 0x00 (0000ms, 0264ms total)
T24B4 000:417 JLINK_WriteReg(CFBP, 0x00000000)  returns 0x00 (0000ms, 0264ms total)
T24B4 000:417 JLINK_SetBPEx(Addr = 0x20002000, Type = 0xFFFFFFF2)  returns 0x00000005 (0000ms, 0264ms total)
T24B4 000:417 JLINK_Go() (0002ms, 0266ms total)
T24B4 000:419 JLINK_IsHalted()  returns FALSE (0001ms, 0267ms total)
T24B4 000:422 JLINK_IsHalted()  returns FALSE (0001ms, 0267ms total)
T24B4 000:424 JLINK_IsHalted()  returns FALSE (0001ms, 0267ms total)
T24B4 000:426 JLINK_IsHalted()  returns FALSE (0001ms, 0267ms total)
T24B4 000:428 JLINK_IsHalted()  returns FALSE (0001ms, 0267ms total)
T24B4 000:430 JLINK_IsHalted()  returns FALSE (0001ms, 0267ms total)
T24B4 000:432 JLINK_IsHalted()  returns FALSE (0001ms, 0267ms total)
T24B4 000:436 JLINK_IsHalted()  returns FALSE (0001ms, 0267ms total)
T24B4 000:438 JLINK_IsHalted()  returns FALSE (0001ms, 0267ms total)
T24B4 000:440 JLINK_IsHalted() -- CPU_ReadMem(2 bytes @ 0x20002000)  returns TRUE (0005ms, 0271ms total)
T24B4 000:445 JLINK_ReadReg(R15 (PC))  returns 0x20002000 (0000ms, 0266ms total)
T24B4 000:445 JLINK_ClrBPEx(BPHandle = 0x00000005)  returns 0x00 (0000ms, 0266ms total)
T24B4 000:445 JLINK_ReadReg(R0)  returns 0x00000000 (0000ms, 0266ms total)
T24B4 000:445 JLINK_WriteReg(R0, 0x00016800)  returns 0x00 (0000ms, 0266ms total)
T24B4 000:445 JLINK_WriteReg(R1, 0x00000400)  returns 0x00 (0000ms, 0266ms total)
T24B4 000:445 JLINK_WriteReg(R2, 0x000000FF)  returns 0x00 (0000ms, 0266ms total)
T24B4 000:445 JLINK_WriteReg(R3, 0x00000000)  returns 0x00 (0000ms, 0266ms total)
T24B4 000:445 JLINK_WriteReg(R4, 0x00000000)  returns 0x00 (0000ms, 0266ms total)
T24B4 000:445 JLINK_WriteReg(R5, 0x00000000)  returns 0x00 (0000ms, 0266ms total)
T24B4 000:445 JLINK_WriteReg(R6, 0x00000000)  returns 0x00 (0000ms, 0266ms total)
T24B4 000:445 JLINK_WriteReg(R7, 0x00000000)  returns 0x00 (0000ms, 0266ms total)
T24B4 000:445 JLINK_WriteReg(R8, 0x00000000)  returns 0x00 (0000ms, 0266ms total)
T24B4 000:445 JLINK_WriteReg(R9, 0x2000246C)  returns 0x00 (0000ms, 0266ms total)
T24B4 000:445 JLINK_WriteReg(R10, 0x00000000)  returns 0x00 (0001ms, 0267ms total)
T24B4 000:446 JLINK_WriteReg(R11, 0x00000000)  returns 0x00 (0000ms, 0267ms total)
T24B4 000:446 JLINK_WriteReg(R12, 0x00000000)  returns 0x00 (0000ms, 0267ms total)
T24B4 000:446 JLINK_WriteReg(R13 (SP), 0x20004000)  returns 0x00 (0000ms, 0267ms total)
T24B4 000:446 JLINK_WriteReg(R14, 0x20002001)  returns 0x00 (0000ms, 0267ms total)
T24B4 000:446 JLINK_WriteReg(R15 (PC), 0x20002182)  returns 0x00 (0000ms, 0267ms total)
T24B4 000:446 JLINK_WriteReg(XPSR, 0x01000000)  returns 0x00 (0000ms, 0267ms total)
T24B4 000:446 JLINK_WriteReg(MSP, 0x20004000)  returns 0x00 (0000ms, 0267ms total)
T24B4 000:446 JLINK_WriteReg(PSP, 0x20004000)  returns 0x00 (0000ms, 0267ms total)
T24B4 000:446 JLINK_WriteReg(CFBP, 0x00000000)  returns 0x00 (0000ms, 0267ms total)
T24B4 000:446 JLINK_SetBPEx(Addr = 0x20002000, Type = 0xFFFFFFF2)  returns 0x00000006 (0000ms, 0267ms total)
T24B4 000:446 JLINK_Go() (0002ms, 0269ms total)
T24B4 000:448 JLINK_IsHalted() -- CPU_ReadMem(2 bytes @ 0x20002000)  returns TRUE (0005ms, 0274ms total)
T24B4 000:453 JLINK_ReadReg(R15 (PC))  returns 0x20002000 (0000ms, 0269ms total)
T24B4 000:453 JLINK_ClrBPEx(BPHandle = 0x00000006)  returns 0x00 (0000ms, 0269ms total)
T24B4 000:453 JLINK_ReadReg(R0)  returns 0x00000001 (0000ms, 0269ms total)
T24B4 000:453 JLINK_WriteReg(R0, 0x00016800)  returns 0x00 (0000ms, 0269ms total)
T24B4 000:453 JLINK_WriteReg(R1, 0x00000400)  returns 0x00 (0000ms, 0269ms total)
T24B4 000:453 JLINK_WriteReg(R2, 0x000000FF)  returns 0x00 (0000ms, 0269ms total)
T24B4 000:453 JLINK_WriteReg(R3, 0x00000000)  returns 0x00 (0000ms, 0269ms total)
T24B4 000:453 JLINK_WriteReg(R4, 0x00000000)  returns 0x00 (0000ms, 0269ms total)
T24B4 000:454 JLINK_WriteReg(R5, 0x00000000)  returns 0x00 (0000ms, 0270ms total)
T24B4 000:454 JLINK_WriteReg(R6, 0x00000000)  returns 0x00 (0000ms, 0270ms total)
T24B4 000:454 JLINK_WriteReg(R7, 0x00000000)  returns 0x00 (0000ms, 0270ms total)
T24B4 000:454 JLINK_WriteReg(R8, 0x00000000)  returns 0x00 (0000ms, 0270ms total)
T24B4 000:454 JLINK_WriteReg(R9, 0x2000246C)  returns 0x00 (0000ms, 0270ms total)
T24B4 000:454 JLINK_WriteReg(R10, 0x00000000)  returns 0x00 (0000ms, 0270ms total)
T24B4 000:454 JLINK_WriteReg(R11, 0x00000000)  returns 0x00 (0000ms, 0270ms total)
T24B4 000:454 JLINK_WriteReg(R12, 0x00000000)  returns 0x00 (0000ms, 0270ms total)
T24B4 000:454 JLINK_WriteReg(R13 (SP), 0x20004000)  returns 0x00 (0000ms, 0270ms total)
T24B4 000:454 JLINK_WriteReg(R14, 0x20002001)  returns 0x00 (0000ms, 0270ms total)
T24B4 000:454 JLINK_WriteReg(R15 (PC), 0x200020FE)  returns 0x00 (0000ms, 0270ms total)
T24B4 000:454 JLINK_WriteReg(XPSR, 0x01000000)  returns 0x00 (0000ms, 0270ms total)
T24B4 000:454 JLINK_WriteReg(MSP, 0x20004000)  returns 0x00 (0000ms, 0270ms total)
T24B4 000:454 JLINK_WriteReg(PSP, 0x20004000)  returns 0x00 (0000ms, 0270ms total)
T24B4 000:454 JLINK_WriteReg(CFBP, 0x00000000)  returns 0x00 (0000ms, 0270ms total)
T24B4 000:454 JLINK_SetBPEx(Addr = 0x20002000, Type = 0xFFFFFFF2)  returns 0x00000007 (0000ms, 0270ms total)
T24B4 000:454 JLINK_Go() (0002ms, 0272ms total)
T24B4 000:456 JLINK_IsHalted()  returns FALSE (0001ms, 0273ms total)
T24B4 000:461 JLINK_IsHalted()  returns FALSE (0001ms, 0273ms total)
T24B4 000:463 JLINK_IsHalted()  returns FALSE (0001ms, 0273ms total)
T24B4 000:465 JLINK_IsHalted()  returns FALSE (0001ms, 0273ms total)
T24B4 000:475 JLINK_IsHalted()  returns FALSE (0001ms, 0273ms total)
T24B4 000:477 JLINK_IsHalted() -- CPU_ReadMem(2 bytes @ 0x20002000)  returns TRUE (0005ms, 0277ms total)
T24B4 000:482 JLINK_ReadReg(R15 (PC))  returns 0x20002000 (0000ms, 0272ms total)
T24B4 000:482 JLINK_ClrBPEx(BPHandle = 0x00000007)  returns 0x00 (0000ms, 0272ms total)
T24B4 000:482 JLINK_ReadReg(R0)  returns 0x00000000 (0000ms, 0272ms total)
T24B4 000:483 JLINK_WriteReg(R0, 0x00016C00)  returns 0x00 (0000ms, 0272ms total)
T24B4 000:483 JLINK_WriteReg(R1, 0x00000400)  returns 0x00 (0000ms, 0272ms total)
T24B4 000:483 JLINK_WriteReg(R2, 0x000000FF)  returns 0x00 (0000ms, 0272ms total)
T24B4 000:483 JLINK_WriteReg(R3, 0x00000000)  returns 0x00 (0000ms, 0272ms total)
T24B4 000:483 JLINK_WriteReg(R4, 0x00000000)  returns 0x00 (0000ms, 0272ms total)
T24B4 000:483 JLINK_WriteReg(R5, 0x00000000)  returns 0x00 (0000ms, 0272ms total)
T24B4 000:483 JLINK_WriteReg(R6, 0x00000000)  returns 0x00 (0000ms, 0272ms total)
T24B4 000:483 JLINK_WriteReg(R7, 0x00000000)  returns 0x00 (0000ms, 0272ms total)
T24B4 000:483 JLINK_WriteReg(R8, 0x00000000)  returns 0x00 (0000ms, 0272ms total)
T24B4 000:483 JLINK_WriteReg(R9, 0x2000246C)  returns 0x00 (0000ms, 0272ms total)
T24B4 000:483 JLINK_WriteReg(R10, 0x00000000)  returns 0x00 (0000ms, 0272ms total)
T24B4 000:483 JLINK_WriteReg(R11, 0x00000000)  returns 0x00 (0000ms, 0272ms total)
T24B4 000:483 JLINK_WriteReg(R12, 0x00000000)  returns 0x00 (0000ms, 0272ms total)
T24B4 000:483 JLINK_WriteReg(R13 (SP), 0x20004000)  returns 0x00 (0000ms, 0272ms total)
T24B4 000:483 JLINK_WriteReg(R14, 0x20002001)  returns 0x00 (0000ms, 0272ms total)
T24B4 000:483 JLINK_WriteReg(R15 (PC), 0x20002182)  returns 0x00 (0000ms, 0272ms total)
T24B4 000:483 JLINK_WriteReg(XPSR, 0x01000000)  returns 0x00 (0000ms, 0272ms total)
T24B4 000:483 JLINK_WriteReg(MSP, 0x20004000)  returns 0x00 (0000ms, 0272ms total)
T24B4 000:483 JLINK_WriteReg(PSP, 0x20004000)  returns 0x00 (0000ms, 0272ms total)
T24B4 000:483 JLINK_WriteReg(CFBP, 0x00000000)  returns 0x00 (0000ms, 0272ms total)
T24B4 000:483 JLINK_SetBPEx(Addr = 0x20002000, Type = 0xFFFFFFF2)  returns 0x00000008 (0000ms, 0272ms total)
T24B4 000:483 JLINK_Go() (0002ms, 0274ms total)
T24B4 000:485 JLINK_IsHalted() -- CPU_ReadMem(2 bytes @ 0x20002000)  returns TRUE (0005ms, 0279ms total)
T24B4 000:490 JLINK_ReadReg(R15 (PC))  returns 0x20002000 (0000ms, 0274ms total)
T24B4 000:490 JLINK_ClrBPEx(BPHandle = 0x00000008)  returns 0x00 (0000ms, 0274ms total)
T24B4 000:490 JLINK_ReadReg(R0)  returns 0x00000001 (0000ms, 0274ms total)
T24B4 000:490 JLINK_WriteReg(R0, 0x00016C00)  returns 0x00 (0000ms, 0274ms total)
T24B4 000:490 JLINK_WriteReg(R1, 0x00000400)  returns 0x00 (0000ms, 0274ms total)
T24B4 000:490 JLINK_WriteReg(R2, 0x000000FF)  returns 0x00 (0000ms, 0274ms total)
T24B4 000:490 JLINK_WriteReg(R3, 0x00000000)  returns 0x00 (0000ms, 0274ms total)
T24B4 000:490 JLINK_WriteReg(R4, 0x00000000)  returns 0x00 (0000ms, 0274ms total)
T24B4 000:490 JLINK_WriteReg(R5, 0x00000000)  returns 0x00 (0000ms, 0274ms total)
T24B4 000:490 JLINK_WriteReg(R6, 0x00000000)  returns 0x00 (0000ms, 0274ms total)
T24B4 000:490 JLINK_WriteReg(R7, 0x00000000)  returns 0x00 (0000ms, 0274ms total)
T24B4 000:490 JLINK_WriteReg(R8, 0x00000000)  returns 0x00 (0000ms, 0274ms total)
T24B4 000:490 JLINK_WriteReg(R9, 0x2000246C)  returns 0x00 (0001ms, 0275ms total)
T24B4 000:491 JLINK_WriteReg(R10, 0x00000000)  returns 0x00 (0000ms, 0275ms total)
T24B4 000:491 JLINK_WriteReg(R11, 0x00000000)  returns 0x00 (0000ms, 0275ms total)
T24B4 000:491 JLINK_WriteReg(R12, 0x00000000)  returns 0x00 (0000ms, 0275ms total)
T24B4 000:491 JLINK_WriteReg(R13 (SP), 0x20004000)  returns 0x00 (0000ms, 0275ms total)
T24B4 000:491 JLINK_WriteReg(R14, 0x20002001)  returns 0x00 (0000ms, 0275ms total)
T24B4 000:491 JLINK_WriteReg(R15 (PC), 0x200020FE)  returns 0x00 (0000ms, 0275ms total)
T24B4 000:491 JLINK_WriteReg(XPSR, 0x01000000)  returns 0x00 (0000ms, 0275ms total)
T24B4 000:491 JLINK_WriteReg(MSP, 0x20004000)  returns 0x00 (0000ms, 0275ms total)
T24B4 000:491 JLINK_WriteReg(PSP, 0x20004000)  returns 0x00 (0000ms, 0275ms total)
T24B4 000:491 JLINK_WriteReg(CFBP, 0x00000000)  returns 0x00 (0000ms, 0275ms total)
T24B4 000:491 JLINK_SetBPEx(Addr = 0x20002000, Type = 0xFFFFFFF2)  returns 0x00000009 (0000ms, 0275ms total)
T24B4 000:491 JLINK_Go() (0002ms, 0277ms total)
T24B4 000:493 JLINK_IsHalted()  returns FALSE (0001ms, 0278ms total)
T24B4 000:498 JLINK_IsHalted()  returns FALSE (0001ms, 0278ms total)
T24B4 000:500 JLINK_IsHalted()  returns FALSE (0001ms, 0278ms total)
T24B4 000:502 JLINK_IsHalted()  returns FALSE (0001ms, 0278ms total)
T24B4 000:504 JLINK_IsHalted()  returns FALSE (0001ms, 0278ms total)
T24B4 000:506 JLINK_IsHalted()  returns FALSE (0001ms, 0278ms total)
T24B4 000:508 JLINK_IsHalted()  returns FALSE (0001ms, 0278ms total)
T24B4 000:510 JLINK_IsHalted()  returns FALSE (0001ms, 0278ms total)
T24B4 000:512 JLINK_IsHalted()  returns FALSE (0001ms, 0278ms total)
T24B4 000:519 JLINK_IsHalted() -- CPU_ReadMem(2 bytes @ 0x20002000)  returns TRUE (0005ms, 0282ms total)
T24B4 000:524 JLINK_ReadReg(R15 (PC))  returns 0x20002000 (0000ms, 0277ms total)
T24B4 000:524 JLINK_ClrBPEx(BPHandle = 0x00000009)  returns 0x00 (0000ms, 0277ms total)
T24B4 000:524 JLINK_ReadReg(R0)  returns 0x00000000 (0000ms, 0277ms total)
T24B4 000:525 JLINK_WriteReg(R0, 0x00017000)  returns 0x00 (0000ms, 0277ms total)
T24B4 000:525 JLINK_WriteReg(R1, 0x00000400)  returns 0x00 (0000ms, 0277ms total)
T24B4 000:525 JLINK_WriteReg(R2, 0x000000FF)  returns 0x00 (0000ms, 0277ms total)
T24B4 000:525 JLINK_WriteReg(R3, 0x00000000)  returns 0x00 (0000ms, 0277ms total)
T24B4 000:525 JLINK_WriteReg(R4, 0x00000000)  returns 0x00 (0000ms, 0277ms total)
T24B4 000:525 JLINK_WriteReg(R5, 0x00000000)  returns 0x00 (0000ms, 0277ms total)
T24B4 000:525 JLINK_WriteReg(R6, 0x00000000)  returns 0x00 (0001ms, 0278ms total)
T24B4 000:526 JLINK_WriteReg(R7, 0x00000000)  returns 0x00 (0000ms, 0278ms total)
T24B4 000:526 JLINK_WriteReg(R8, 0x00000000)  returns 0x00 (0000ms, 0278ms total)
T24B4 000:526 JLINK_WriteReg(R9, 0x2000246C)  returns 0x00 (0000ms, 0278ms total)
T24B4 000:526 JLINK_WriteReg(R10, 0x00000000)  returns 0x00 (0000ms, 0278ms total)
T24B4 000:526 JLINK_WriteReg(R11, 0x00000000)  returns 0x00 (0000ms, 0278ms total)
T24B4 000:526 JLINK_WriteReg(R12, 0x00000000)  returns 0x00 (0000ms, 0278ms total)
T24B4 000:526 JLINK_WriteReg(R13 (SP), 0x20004000)  returns 0x00 (0000ms, 0278ms total)
T24B4 000:526 JLINK_WriteReg(R14, 0x20002001)  returns 0x00 (0000ms, 0278ms total)
T24B4 000:526 JLINK_WriteReg(R15 (PC), 0x20002182)  returns 0x00 (0000ms, 0278ms total)
T24B4 000:526 JLINK_WriteReg(XPSR, 0x01000000)  returns 0x00 (0000ms, 0278ms total)
T24B4 000:526 JLINK_WriteReg(MSP, 0x20004000)  returns 0x00 (0000ms, 0278ms total)
T24B4 000:526 JLINK_WriteReg(PSP, 0x20004000)  returns 0x00 (0000ms, 0278ms total)
T24B4 000:526 JLINK_WriteReg(CFBP, 0x00000000)  returns 0x00 (0000ms, 0278ms total)
T24B4 000:526 JLINK_SetBPEx(Addr = 0x20002000, Type = 0xFFFFFFF2)  returns 0x0000000A (0000ms, 0278ms total)
T24B4 000:526 JLINK_Go() (0003ms, 0281ms total)
T24B4 000:529 JLINK_IsHalted() -- CPU_ReadMem(2 bytes @ 0x20002000)  returns TRUE (0005ms, 0286ms total)
T24B4 000:534 JLINK_ReadReg(R15 (PC))  returns 0x20002000 (0000ms, 0281ms total)
T24B4 000:534 JLINK_ClrBPEx(BPHandle = 0x0000000A)  returns 0x00 (0000ms, 0281ms total)
T24B4 000:534 JLINK_ReadReg(R0)  returns 0x00000001 (0000ms, 0281ms total)
T24B4 000:534 JLINK_WriteReg(R0, 0x00017000)  returns 0x00 (0000ms, 0281ms total)
T24B4 000:534 JLINK_WriteReg(R1, 0x00000400)  returns 0x00 (0000ms, 0281ms total)
T24B4 000:534 JLINK_WriteReg(R2, 0x000000FF)  returns 0x00 (0000ms, 0281ms total)
T24B4 000:534 JLINK_WriteReg(R3, 0x00000000)  returns 0x00 (0000ms, 0281ms total)
T24B4 000:534 JLINK_WriteReg(R4, 0x00000000)  returns 0x00 (0000ms, 0281ms total)
T24B4 000:534 JLINK_WriteReg(R5, 0x00000000)  returns 0x00 (0000ms, 0281ms total)
T24B4 000:534 JLINK_WriteReg(R6, 0x00000000)  returns 0x00 (0000ms, 0281ms total)
T24B4 000:534 JLINK_WriteReg(R7, 0x00000000)  returns 0x00 (0000ms, 0281ms total)
T24B4 000:534 JLINK_WriteReg(R8, 0x00000000)  returns 0x00 (0000ms, 0281ms total)
T24B4 000:534 JLINK_WriteReg(R9, 0x2000246C)  returns 0x00 (0000ms, 0281ms total)
T24B4 000:534 JLINK_WriteReg(R10, 0x00000000)  returns 0x00 (0000ms, 0281ms total)
T24B4 000:534 JLINK_WriteReg(R11, 0x00000000)  returns 0x00 (0000ms, 0281ms total)
T24B4 000:534 JLINK_WriteReg(R12, 0x00000000)  returns 0x00 (0000ms, 0281ms total)
T24B4 000:534 JLINK_WriteReg(R13 (SP), 0x20004000)  returns 0x00 (0000ms, 0281ms total)
T24B4 000:534 JLINK_WriteReg(R14, 0x20002001)  returns 0x00 (0000ms, 0281ms total)
T24B4 000:534 JLINK_WriteReg(R15 (PC), 0x200020FE)  returns 0x00 (0000ms, 0281ms total)
T24B4 000:534 JLINK_WriteReg(XPSR, 0x01000000)  returns 0x00 (0000ms, 0281ms total)
T24B4 000:534 JLINK_WriteReg(MSP, 0x20004000)  returns 0x00 (0000ms, 0281ms total)
T24B4 000:534 JLINK_WriteReg(PSP, 0x20004000)  returns 0x00 (0000ms, 0281ms total)
T24B4 000:534 JLINK_WriteReg(CFBP, 0x00000000)  returns 0x00 (0000ms, 0281ms total)
T24B4 000:534 JLINK_SetBPEx(Addr = 0x20002000, Type = 0xFFFFFFF2)  returns 0x0000000B (0000ms, 0281ms total)
T24B4 000:534 JLINK_Go() (0003ms, 0284ms total)
T24B4 000:537 JLINK_IsHalted()  returns FALSE (0001ms, 0285ms total)
T24B4 000:540 JLINK_IsHalted()  returns FALSE (0001ms, 0285ms total)
T24B4 000:542 JLINK_IsHalted()  returns FALSE (0001ms, 0285ms total)
T24B4 000:547 JLINK_IsHalted()  returns FALSE (0001ms, 0285ms total)
T24B4 000:549 JLINK_IsHalted()  returns FALSE (0001ms, 0285ms total)
T24B4 000:551 JLINK_IsHalted()  returns FALSE (0001ms, 0285ms total)
T24B4 000:553 JLINK_IsHalted()  returns FALSE (0001ms, 0285ms total)
T24B4 000:555 JLINK_IsHalted()  returns FALSE (0001ms, 0285ms total)
T24B4 000:557 JLINK_IsHalted()  returns FALSE (0001ms, 0285ms total)
T24B4 000:563 JLINK_IsHalted() -- CPU_ReadMem(2 bytes @ 0x20002000)  returns TRUE (0005ms, 0289ms total)
T24B4 000:568 JLINK_ReadReg(R15 (PC))  returns 0x20002000 (0000ms, 0284ms total)
T24B4 000:568 JLINK_ClrBPEx(BPHandle = 0x0000000B)  returns 0x00 (0000ms, 0284ms total)
T24B4 000:568 JLINK_ReadReg(R0)  returns 0x00000000 (0000ms, 0284ms total)
T24B4 000:568 JLINK_WriteReg(R0, 0x00017400)  returns 0x00 (0000ms, 0284ms total)
T24B4 000:568 JLINK_WriteReg(R1, 0x00000400)  returns 0x00 (0000ms, 0284ms total)
T24B4 000:568 JLINK_WriteReg(R2, 0x000000FF)  returns 0x00 (0000ms, 0284ms total)
T24B4 000:568 JLINK_WriteReg(R3, 0x00000000)  returns 0x00 (0000ms, 0284ms total)
T24B4 000:568 JLINK_WriteReg(R4, 0x00000000)  returns 0x00 (0000ms, 0284ms total)
T24B4 000:568 JLINK_WriteReg(R5, 0x00000000)  returns 0x00 (0000ms, 0284ms total)
T24B4 000:568 JLINK_WriteReg(R6, 0x00000000)  returns 0x00 (0000ms, 0284ms total)
T24B4 000:568 JLINK_WriteReg(R7, 0x00000000)  returns 0x00 (0000ms, 0284ms total)
T24B4 000:568 JLINK_WriteReg(R8, 0x00000000)  returns 0x00 (0000ms, 0284ms total)
T24B4 000:568 JLINK_WriteReg(R9, 0x2000246C)  returns 0x00 (0000ms, 0284ms total)
T24B4 000:568 JLINK_WriteReg(R10, 0x00000000)  returns 0x00 (0000ms, 0284ms total)
T24B4 000:568 JLINK_WriteReg(R11, 0x00000000)  returns 0x00 (0000ms, 0284ms total)
T24B4 000:568 JLINK_WriteReg(R12, 0x00000000)  returns 0x00 (0000ms, 0284ms total)
T24B4 000:568 JLINK_WriteReg(R13 (SP), 0x20004000)  returns 0x00 (0000ms, 0284ms total)
T24B4 000:568 JLINK_WriteReg(R14, 0x20002001)  returns 0x00 (0001ms, 0285ms total)
T24B4 000:569 JLINK_WriteReg(R15 (PC), 0x20002182)  returns 0x00 (0000ms, 0285ms total)
T24B4 000:569 JLINK_WriteReg(XPSR, 0x01000000)  returns 0x00 (0000ms, 0285ms total)
T24B4 000:569 JLINK_WriteReg(MSP, 0x20004000)  returns 0x00 (0000ms, 0285ms total)
T24B4 000:569 JLINK_WriteReg(PSP, 0x20004000)  returns 0x00 (0000ms, 0285ms total)
T24B4 000:569 JLINK_WriteReg(CFBP, 0x00000000)  returns 0x00 (0000ms, 0285ms total)
T24B4 000:569 JLINK_SetBPEx(Addr = 0x20002000, Type = 0xFFFFFFF2)  returns 0x0000000C (0000ms, 0285ms total)
T24B4 000:569 JLINK_Go() (0002ms, 0287ms total)
T24B4 000:571 JLINK_IsHalted() -- CPU_ReadMem(2 bytes @ 0x20002000)  returns TRUE (0005ms, 0292ms total)
T24B4 000:576 JLINK_ReadReg(R15 (PC))  returns 0x20002000 (0000ms, 0287ms total)
T24B4 000:576 JLINK_ClrBPEx(BPHandle = 0x0000000C)  returns 0x00 (0000ms, 0287ms total)
T24B4 000:576 JLINK_ReadReg(R0)  returns 0x00000001 (0000ms, 0287ms total)
T24B4 000:576 JLINK_WriteReg(R0, 0x00017400)  returns 0x00 (0000ms, 0287ms total)
T24B4 000:576 JLINK_WriteReg(R1, 0x00000400)  returns 0x00 (0000ms, 0287ms total)
T24B4 000:576 JLINK_WriteReg(R2, 0x000000FF)  returns 0x00 (0000ms, 0287ms total)
T24B4 000:576 JLINK_WriteReg(R3, 0x00000000)  returns 0x00 (0000ms, 0287ms total)
T24B4 000:576 JLINK_WriteReg(R4, 0x00000000)  returns 0x00 (0000ms, 0287ms total)
T24B4 000:576 JLINK_WriteReg(R5, 0x00000000)  returns 0x00 (0000ms, 0287ms total)
T24B4 000:576 JLINK_WriteReg(R6, 0x00000000)  returns 0x00 (0000ms, 0287ms total)
T24B4 000:576 JLINK_WriteReg(R7, 0x00000000)  returns 0x00 (0000ms, 0287ms total)
T24B4 000:576 JLINK_WriteReg(R8, 0x00000000)  returns 0x00 (0000ms, 0287ms total)
T24B4 000:576 JLINK_WriteReg(R9, 0x2000246C)  returns 0x00 (0000ms, 0287ms total)
T24B4 000:576 JLINK_WriteReg(R10, 0x00000000)  returns 0x00 (0000ms, 0287ms total)
T24B4 000:576 JLINK_WriteReg(R11, 0x00000000)  returns 0x00 (0000ms, 0287ms total)
T24B4 000:576 JLINK_WriteReg(R12, 0x00000000)  returns 0x00 (0000ms, 0287ms total)
T24B4 000:576 JLINK_WriteReg(R13 (SP), 0x20004000)  returns 0x00 (0000ms, 0287ms total)
T24B4 000:576 JLINK_WriteReg(R14, 0x20002001)  returns 0x00 (0000ms, 0287ms total)
T24B4 000:576 JLINK_WriteReg(R15 (PC), 0x200020FE)  returns 0x00 (0000ms, 0287ms total)
T24B4 000:576 JLINK_WriteReg(XPSR, 0x01000000)  returns 0x00 (0000ms, 0287ms total)
T24B4 000:576 JLINK_WriteReg(MSP, 0x20004000)  returns 0x00 (0000ms, 0287ms total)
T24B4 000:576 JLINK_WriteReg(PSP, 0x20004000)  returns 0x00 (0000ms, 0287ms total)
T24B4 000:576 JLINK_WriteReg(CFBP, 0x00000000)  returns 0x00 (0000ms, 0287ms total)
T24B4 000:576 JLINK_SetBPEx(Addr = 0x20002000, Type = 0xFFFFFFF2)  returns 0x0000000D (0000ms, 0287ms total)
T24B4 000:576 JLINK_Go() (0003ms, 0290ms total)
T24B4 000:579 JLINK_IsHalted()  returns FALSE (0001ms, 0291ms total)
T24B4 000:590 JLINK_IsHalted()  returns FALSE (0001ms, 0291ms total)
T24B4 000:594 JLINK_IsHalted()  returns FALSE (0001ms, 0291ms total)
T24B4 000:596 JLINK_IsHalted()  returns FALSE (0001ms, 0291ms total)
T24B4 000:598 JLINK_IsHalted()  returns FALSE (0001ms, 0291ms total)
T24B4 000:600 JLINK_IsHalted() -- CPU_ReadMem(2 bytes @ 0x20002000)  returns TRUE (0005ms, 0295ms total)
T24B4 000:605 JLINK_ReadReg(R15 (PC))  returns 0x20002000 (0000ms, 0290ms total)
T24B4 000:605 JLINK_ClrBPEx(BPHandle = 0x0000000D)  returns 0x00 (0000ms, 0290ms total)
T24B4 000:605 JLINK_ReadReg(R0)  returns 0x00000000 (0000ms, 0290ms total)
T24B4 000:606 JLINK_WriteReg(R0, 0x00017800)  returns 0x00 (0000ms, 0290ms total)
T24B4 000:606 JLINK_WriteReg(R1, 0x00000400)  returns 0x00 (0000ms, 0290ms total)
T24B4 000:606 JLINK_WriteReg(R2, 0x000000FF)  returns 0x00 (0000ms, 0290ms total)
T24B4 000:606 JLINK_WriteReg(R3, 0x00000000)  returns 0x00 (0000ms, 0290ms total)
T24B4 000:606 JLINK_WriteReg(R4, 0x00000000)  returns 0x00 (0000ms, 0290ms total)
T24B4 000:606 JLINK_WriteReg(R5, 0x00000000)  returns 0x00 (0000ms, 0290ms total)
T24B4 000:606 JLINK_WriteReg(R6, 0x00000000)  returns 0x00 (0000ms, 0290ms total)
T24B4 000:606 JLINK_WriteReg(R7, 0x00000000)  returns 0x00 (0000ms, 0290ms total)
T24B4 000:606 JLINK_WriteReg(R8, 0x00000000)  returns 0x00 (0000ms, 0290ms total)
T24B4 000:606 JLINK_WriteReg(R9, 0x2000246C)  returns 0x00 (0000ms, 0290ms total)
T24B4 000:606 JLINK_WriteReg(R10, 0x00000000)  returns 0x00 (0000ms, 0290ms total)
T24B4 000:606 JLINK_WriteReg(R11, 0x00000000)  returns 0x00 (0000ms, 0290ms total)
T24B4 000:606 JLINK_WriteReg(R12, 0x00000000)  returns 0x00 (0001ms, 0291ms total)
T24B4 000:607 JLINK_WriteReg(R13 (SP), 0x20004000)  returns 0x00 (0000ms, 0291ms total)
T24B4 000:607 JLINK_WriteReg(R14, 0x20002001)  returns 0x00 (0000ms, 0291ms total)
T24B4 000:607 JLINK_WriteReg(R15 (PC), 0x20002182)  returns 0x00 (0000ms, 0291ms total)
T24B4 000:607 JLINK_WriteReg(XPSR, 0x01000000)  returns 0x00 (0000ms, 0291ms total)
T24B4 000:607 JLINK_WriteReg(MSP, 0x20004000)  returns 0x00 (0000ms, 0291ms total)
T24B4 000:607 JLINK_WriteReg(PSP, 0x20004000)  returns 0x00 (0000ms, 0291ms total)
T24B4 000:607 JLINK_WriteReg(CFBP, 0x00000000)  returns 0x00 (0000ms, 0291ms total)
T24B4 000:607 JLINK_SetBPEx(Addr = 0x20002000, Type = 0xFFFFFFF2)  returns 0x0000000E (0000ms, 0291ms total)
T24B4 000:607 JLINK_Go() (0002ms, 0293ms total)
T24B4 000:609 JLINK_IsHalted() -- CPU_ReadMem(2 bytes @ 0x20002000)  returns TRUE (0005ms, 0298ms total)
T24B4 000:614 JLINK_ReadReg(R15 (PC))  returns 0x20002000 (0000ms, 0293ms total)
T24B4 000:614 JLINK_ClrBPEx(BPHandle = 0x0000000E)  returns 0x00 (0000ms, 0293ms total)
T24B4 000:614 JLINK_ReadReg(R0)  returns 0x00000001 (0000ms, 0293ms total)
T24B4 000:614 JLINK_WriteReg(R0, 0x00017800)  returns 0x00 (0000ms, 0293ms total)
T24B4 000:614 JLINK_WriteReg(R1, 0x00000400)  returns 0x00 (0000ms, 0293ms total)
T24B4 000:614 JLINK_WriteReg(R2, 0x000000FF)  returns 0x00 (0000ms, 0293ms total)
T24B4 000:614 JLINK_WriteReg(R3, 0x00000000)  returns 0x00 (0000ms, 0293ms total)
T24B4 000:614 JLINK_WriteReg(R4, 0x00000000)  returns 0x00 (0000ms, 0293ms total)
T24B4 000:614 JLINK_WriteReg(R5, 0x00000000)  returns 0x00 (0000ms, 0293ms total)
T24B4 000:614 JLINK_WriteReg(R6, 0x00000000)  returns 0x00 (0000ms, 0293ms total)
T24B4 000:614 JLINK_WriteReg(R7, 0x00000000)  returns 0x00 (0000ms, 0293ms total)
T24B4 000:614 JLINK_WriteReg(R8, 0x00000000)  returns 0x00 (0000ms, 0293ms total)
T24B4 000:614 JLINK_WriteReg(R9, 0x2000246C)  returns 0x00 (0000ms, 0293ms total)
T24B4 000:614 JLINK_WriteReg(R10, 0x00000000)  returns 0x00 (0000ms, 0293ms total)
T24B4 000:614 JLINK_WriteReg(R11, 0x00000000)  returns 0x00 (0000ms, 0293ms total)
T24B4 000:614 JLINK_WriteReg(R12, 0x00000000)  returns 0x00 (0000ms, 0293ms total)
T24B4 000:614 JLINK_WriteReg(R13 (SP), 0x20004000)  returns 0x00 (0000ms, 0293ms total)
T24B4 000:614 JLINK_WriteReg(R14, 0x20002001)  returns 0x00 (0000ms, 0293ms total)
T24B4 000:614 JLINK_WriteReg(R15 (PC), 0x200020FE)  returns 0x00 (0000ms, 0293ms total)
T24B4 000:614 JLINK_WriteReg(XPSR, 0x01000000)  returns 0x00 (0000ms, 0293ms total)
T24B4 000:614 JLINK_WriteReg(MSP, 0x20004000)  returns 0x00 (0000ms, 0293ms total)
T24B4 000:614 JLINK_WriteReg(PSP, 0x20004000)  returns 0x00 (0000ms, 0293ms total)
T24B4 000:614 JLINK_WriteReg(CFBP, 0x00000000)  returns 0x00 (0000ms, 0293ms total)
T24B4 000:614 JLINK_SetBPEx(Addr = 0x20002000, Type = 0xFFFFFFF2)  returns 0x0000000F (0000ms, 0293ms total)
T24B4 000:614 JLINK_Go() (0003ms, 0296ms total)
T24B4 000:617 JLINK_IsHalted()  returns FALSE (0001ms, 0297ms total)
T24B4 000:620 JLINK_IsHalted()  returns FALSE (0001ms, 0297ms total)
T24B4 000:622 JLINK_IsHalted()  returns FALSE (0001ms, 0297ms total)
T24B4 000:627 JLINK_IsHalted()  returns FALSE (0001ms, 0297ms total)
T24B4 000:629 JLINK_IsHalted()  returns FALSE (0001ms, 0297ms total)
T24B4 000:631 JLINK_IsHalted()  returns FALSE (0001ms, 0297ms total)
T24B4 000:633 JLINK_IsHalted()  returns FALSE (0001ms, 0297ms total)
T24B4 000:635 JLINK_IsHalted()  returns FALSE (0001ms, 0297ms total)
T24B4 000:640 JLINK_IsHalted() -- CPU_ReadMem(2 bytes @ 0x20002000)  returns TRUE (0005ms, 0301ms total)
T24B4 000:645 JLINK_ReadReg(R15 (PC))  returns 0x20002000 (0000ms, 0296ms total)
T24B4 000:645 JLINK_ClrBPEx(BPHandle = 0x0000000F)  returns 0x00 (0000ms, 0296ms total)
T24B4 000:645 JLINK_ReadReg(R0)  returns 0x00000000 (0000ms, 0296ms total)
T24B4 000:645 JLINK_WriteReg(R0, 0x00017C00)  returns 0x00 (0000ms, 0296ms total)
T24B4 000:645 JLINK_WriteReg(R1, 0x00000400)  returns 0x00 (0000ms, 0296ms total)
T24B4 000:645 JLINK_WriteReg(R2, 0x000000FF)  returns 0x00 (0000ms, 0296ms total)
T24B4 000:645 JLINK_WriteReg(R3, 0x00000000)  returns 0x00 (0000ms, 0296ms total)
T24B4 000:645 JLINK_WriteReg(R4, 0x00000000)  returns 0x00 (0000ms, 0296ms total)
T24B4 000:645 JLINK_WriteReg(R5, 0x00000000)  returns 0x00 (0000ms, 0296ms total)
T24B4 000:645 JLINK_WriteReg(R6, 0x00000000)  returns 0x00 (0000ms, 0296ms total)
T24B4 000:645 JLINK_WriteReg(R7, 0x00000000)  returns 0x00 (0000ms, 0296ms total)
T24B4 000:645 JLINK_WriteReg(R8, 0x00000000)  returns 0x00 (0000ms, 0296ms total)
T24B4 000:645 JLINK_WriteReg(R9, 0x2000246C)  returns 0x00 (0000ms, 0296ms total)
T24B4 000:645 JLINK_WriteReg(R10, 0x00000000)  returns 0x00 (0000ms, 0296ms total)
T24B4 000:645 JLINK_WriteReg(R11, 0x00000000)  returns 0x00 (0000ms, 0296ms total)
T24B4 000:645 JLINK_WriteReg(R12, 0x00000000)  returns 0x00 (0000ms, 0296ms total)
T24B4 000:645 JLINK_WriteReg(R13 (SP), 0x20004000)  returns 0x00 (0000ms, 0296ms total)
T24B4 000:645 JLINK_WriteReg(R14, 0x20002001)  returns 0x00 (0001ms, 0297ms total)
T24B4 000:646 JLINK_WriteReg(R15 (PC), 0x20002182)  returns 0x00 (0000ms, 0297ms total)
T24B4 000:646 JLINK_WriteReg(XPSR, 0x01000000)  returns 0x00 (0000ms, 0297ms total)
T24B4 000:646 JLINK_WriteReg(MSP, 0x20004000)  returns 0x00 (0000ms, 0297ms total)
T24B4 000:646 JLINK_WriteReg(PSP, 0x20004000)  returns 0x00 (0000ms, 0297ms total)
T24B4 000:646 JLINK_WriteReg(CFBP, 0x00000000)  returns 0x00 (0000ms, 0297ms total)
T24B4 000:646 JLINK_SetBPEx(Addr = 0x20002000, Type = 0xFFFFFFF2)  returns 0x00000010 (0000ms, 0297ms total)
T24B4 000:646 JLINK_Go() (0002ms, 0299ms total)
T24B4 000:648 JLINK_IsHalted() -- CPU_ReadMem(2 bytes @ 0x20002000)  returns TRUE (0005ms, 0304ms total)
T24B4 000:653 JLINK_ReadReg(R15 (PC))  returns 0x20002000 (0000ms, 0299ms total)
T24B4 000:653 JLINK_ClrBPEx(BPHandle = 0x00000010)  returns 0x00 (0000ms, 0299ms total)
T24B4 000:653 JLINK_ReadReg(R0)  returns 0x00000001 (0000ms, 0299ms total)
T24B4 000:653 JLINK_WriteReg(R0, 0x00017C00)  returns 0x00 (0000ms, 0299ms total)
T24B4 000:653 JLINK_WriteReg(R1, 0x00000400)  returns 0x00 (0000ms, 0299ms total)
T24B4 000:653 JLINK_WriteReg(R2, 0x000000FF)  returns 0x00 (0000ms, 0299ms total)
T24B4 000:653 JLINK_WriteReg(R3, 0x00000000)  returns 0x00 (0000ms, 0299ms total)
T24B4 000:653 JLINK_WriteReg(R4, 0x00000000)  returns 0x00 (0000ms, 0299ms total)
T24B4 000:653 JLINK_WriteReg(R5, 0x00000000)  returns 0x00 (0000ms, 0299ms total)
T24B4 000:653 JLINK_WriteReg(R6, 0x00000000)  returns 0x00 (0000ms, 0299ms total)
T24B4 000:653 JLINK_WriteReg(R7, 0x00000000)  returns 0x00 (0000ms, 0299ms total)
T24B4 000:653 JLINK_WriteReg(R8, 0x00000000)  returns 0x00 (0000ms, 0299ms total)
T24B4 000:653 JLINK_WriteReg(R9, 0x2000246C)  returns 0x00 (0000ms, 0299ms total)
T24B4 000:653 JLINK_WriteReg(R10, 0x00000000)  returns 0x00 (0000ms, 0299ms total)
T24B4 000:653 JLINK_WriteReg(R11, 0x00000000)  returns 0x00 (0000ms, 0299ms total)
T24B4 000:653 JLINK_WriteReg(R12, 0x00000000)  returns 0x00 (0000ms, 0299ms total)
T24B4 000:653 JLINK_WriteReg(R13 (SP), 0x20004000)  returns 0x00 (0000ms, 0299ms total)
T24B4 000:653 JLINK_WriteReg(R14, 0x20002001)  returns 0x00 (0000ms, 0299ms total)
T24B4 000:653 JLINK_WriteReg(R15 (PC), 0x200020FE)  returns 0x00 (0000ms, 0299ms total)
T24B4 000:653 JLINK_WriteReg(XPSR, 0x01000000)  returns 0x00 (0000ms, 0299ms total)
T24B4 000:653 JLINK_WriteReg(MSP, 0x20004000)  returns 0x00 (0000ms, 0299ms total)
T24B4 000:653 JLINK_WriteReg(PSP, 0x20004000)  returns 0x00 (0000ms, 0299ms total)
T24B4 000:653 JLINK_WriteReg(CFBP, 0x00000000)  returns 0x00 (0000ms, 0299ms total)
T24B4 000:653 JLINK_SetBPEx(Addr = 0x20002000, Type = 0xFFFFFFF2)  returns 0x00000011 (0000ms, 0299ms total)
T24B4 000:653 JLINK_Go() (0003ms, 0302ms total)
T24B4 000:656 JLINK_IsHalted()  returns FALSE (0001ms, 0303ms total)
T24B4 000:659 JLINK_IsHalted()  returns FALSE (0002ms, 0304ms total)
T24B4 000:662 JLINK_IsHalted()  returns FALSE (0001ms, 0303ms total)
T24B4 000:664 JLINK_IsHalted()  returns FALSE (0002ms, 0304ms total)
T24B4 000:667 JLINK_IsHalted()  returns FALSE (0001ms, 0303ms total)
T24B4 000:669 JLINK_IsHalted()  returns FALSE (0001ms, 0303ms total)
T24B4 000:673 JLINK_IsHalted()  returns FALSE (0001ms, 0303ms total)
T24B4 000:675 JLINK_IsHalted()  returns FALSE (0001ms, 0303ms total)
T24B4 000:677 JLINK_IsHalted() -- CPU_ReadMem(2 bytes @ 0x20002000)  returns TRUE (0005ms, 0307ms total)
T24B4 000:682 JLINK_ReadReg(R15 (PC))  returns 0x20002000 (0000ms, 0302ms total)
T24B4 000:682 JLINK_ClrBPEx(BPHandle = 0x00000011)  returns 0x00 (0000ms, 0302ms total)
T24B4 000:682 JLINK_ReadReg(R0)  returns 0x00000000 (0000ms, 0302ms total)
T24B4 000:682 JLINK_WriteReg(R0, 0x00018000)  returns 0x00 (0000ms, 0302ms total)
T24B4 000:682 JLINK_WriteReg(R1, 0x00000400)  returns 0x00 (0000ms, 0302ms total)
T24B4 000:682 JLINK_WriteReg(R2, 0x000000FF)  returns 0x00 (0000ms, 0302ms total)
T24B4 000:682 JLINK_WriteReg(R3, 0x00000000)  returns 0x00 (0000ms, 0302ms total)
T24B4 000:682 JLINK_WriteReg(R4, 0x00000000)  returns 0x00 (0000ms, 0302ms total)
T24B4 000:682 JLINK_WriteReg(R5, 0x00000000)  returns 0x00 (0000ms, 0302ms total)
T24B4 000:682 JLINK_WriteReg(R6, 0x00000000)  returns 0x00 (0000ms, 0302ms total)
T24B4 000:682 JLINK_WriteReg(R7, 0x00000000)  returns 0x00 (0000ms, 0302ms total)
T24B4 000:682 JLINK_WriteReg(R8, 0x00000000)  returns 0x00 (0000ms, 0302ms total)
T24B4 000:682 JLINK_WriteReg(R9, 0x2000246C)  returns 0x00 (0000ms, 0302ms total)
T24B4 000:682 JLINK_WriteReg(R10, 0x00000000)  returns 0x00 (0000ms, 0302ms total)
T24B4 000:683 JLINK_WriteReg(R11, 0x00000000)  returns 0x00 (0000ms, 0302ms total)
T24B4 000:683 JLINK_WriteReg(R12, 0x00000000)  returns 0x00 (0000ms, 0302ms total)
T24B4 000:683 JLINK_WriteReg(R13 (SP), 0x20004000)  returns 0x00 (0000ms, 0302ms total)
T24B4 000:683 JLINK_WriteReg(R14, 0x20002001)  returns 0x00 (0000ms, 0302ms total)
T24B4 000:683 JLINK_WriteReg(R15 (PC), 0x20002182)  returns 0x00 (0000ms, 0302ms total)
T24B4 000:683 JLINK_WriteReg(XPSR, 0x01000000)  returns 0x00 (0000ms, 0302ms total)
T24B4 000:683 JLINK_WriteReg(MSP, 0x20004000)  returns 0x00 (0000ms, 0302ms total)
T24B4 000:683 JLINK_WriteReg(PSP, 0x20004000)  returns 0x00 (0000ms, 0302ms total)
T24B4 000:683 JLINK_WriteReg(CFBP, 0x00000000)  returns 0x00 (0000ms, 0302ms total)
T24B4 000:683 JLINK_SetBPEx(Addr = 0x20002000, Type = 0xFFFFFFF2)  returns 0x00000012 (0000ms, 0302ms total)
T24B4 000:683 JLINK_Go() (0002ms, 0304ms total)
T24B4 000:685 JLINK_IsHalted() -- CPU_ReadMem(2 bytes @ 0x20002000)  returns TRUE (0005ms, 0309ms total)
T24B4 000:690 JLINK_ReadReg(R15 (PC))  returns 0x20002000 (0000ms, 0304ms total)
T24B4 000:690 JLINK_ClrBPEx(BPHandle = 0x00000012)  returns 0x00 (0000ms, 0304ms total)
T24B4 000:690 JLINK_ReadReg(R0)  returns 0x00000001 (0000ms, 0304ms total)
T24B4 000:690 JLINK_WriteReg(R0, 0x00018000)  returns 0x00 (0000ms, 0304ms total)
T24B4 000:690 JLINK_WriteReg(R1, 0x00000400)  returns 0x00 (0000ms, 0304ms total)
T24B4 000:690 JLINK_WriteReg(R2, 0x000000FF)  returns 0x00 (0000ms, 0304ms total)
T24B4 000:690 JLINK_WriteReg(R3, 0x00000000)  returns 0x00 (0000ms, 0304ms total)
T24B4 000:690 JLINK_WriteReg(R4, 0x00000000)  returns 0x00 (0000ms, 0304ms total)
T24B4 000:690 JLINK_WriteReg(R5, 0x00000000)  returns 0x00 (0000ms, 0304ms total)
T24B4 000:690 JLINK_WriteReg(R6, 0x00000000)  returns 0x00 (0000ms, 0304ms total)
T24B4 000:690 JLINK_WriteReg(R7, 0x00000000)  returns 0x00 (0000ms, 0304ms total)
T24B4 000:690 JLINK_WriteReg(R8, 0x00000000)  returns 0x00 (0000ms, 0304ms total)
T24B4 000:690 JLINK_WriteReg(R9, 0x2000246C)  returns 0x00 (0000ms, 0304ms total)
T24B4 000:690 JLINK_WriteReg(R10, 0x00000000)  returns 0x00 (0000ms, 0304ms total)
T24B4 000:690 JLINK_WriteReg(R11, 0x00000000)  returns 0x00 (0000ms, 0304ms total)
